
T2354 000:049 SEGGER J-Link V6.14b Log File (0001ms, 0033ms total)
T2354 000:049 DLL Compiled: Mar  9 2017 08:46:04 (0001ms, 0033ms total)
T2354 000:049 Logging started @ 2017-04-23 10:15 (0001ms, 0033ms total)
T2354 000:050 JLINK_SetWarnOutHandler(...) (0000ms, 0033ms total)
T2354 000:050 JLINK_OpenEx(...)
Firmware: J-Link V9 compiled Dec 16 2016 15:34:10
Hardware: V9.20
Feature(s): RDI, GDB, FlashDL, FlashBP, JFlash, RDDIWEBSRV Webserver running on local port 19080 (0016ms, 0049ms total)
T2354 000:050   returns O.K. (0016ms, 0049ms total)
T2354 000:066 JLINK_SetErrorOutHandler(...) (0000ms, 0049ms total)
T2354 000:066 JLINK_ExecCommand("ProjectFile = "H:\BaiduNetdiskDownload\EU-STM32F407ZG核心板资料\程序源码\GUI演示_基于EU-TFT3.2屏幕_320240\Project\JLinkSettings.ini"", ...). D:\JLink_V614b\JLinkDevices.xml evaluated successfully.  returns 0x00 (0179ms, 0228ms total)
T2354 000:245 JLINK_ExecCommand("Device = STM32F407ZG", ...). Device "STM32F407ZG" selected.  returns 0x00 (0003ms, 0231ms total)
T2354 000:248 JLINK_ExecCommand("DisableConnectionTimeout", ...).   returns 0x01 (0000ms, 0231ms total)
T2354 000:248 JLINK_GetHardwareVersion()  returns 0x16760 (0000ms, 0231ms total)
T2354 000:248 JLINK_GetDLLVersion()  returns 61402 (0000ms, 0231ms total)
T2354 000:248 JLINK_GetFirmwareString(...) (0000ms, 0231ms total)
T2354 000:248 JLINK_GetDLLVersion()  returns 61402 (0000ms, 0231ms total)
T2354 000:248 JLINK_GetCompileDateTime() (0000ms, 0231ms total)
T2354 000:248 JLINK_GetFirmwareString(...) (0000ms, 0231ms total)
T2354 000:248 JLINK_GetHardwareVersion()  returns 0x16760 (0000ms, 0231ms total)
T2354 000:248 JLINK_TIF_Select(JLINKARM_TIF_JTAG)  returns 0x00 (0001ms, 0232ms total)
T2354 000:249 JLINK_SetSpeed(5000) (0000ms, 0232ms total)
T2354 000:249 JLINK_GetIdData(...) >0x2F8 JTAG>TotalIRLen = 9, IRPrint = 0x0011 >0x30 JTAG> >0x410 JTAG> >0x40 JTAG> >0x40 JTAG> >0x40 JTAG> >0x30 JTAG> >0x40 JTAG> >0x40 JTAG> >0x40 JTAG> >0x40 JTAG> >0x40 JTAG> >0x40 JTAG> >0x40 JTAG> >0x40 JTAG> >0x40 JTAG> >0x40 JTAG> >0x40 JTAG> >0x40 JTAG> >0x40 JTAG> >0x40 JTAG> >0x40 JTAG> >0x40 JTAG> >0x40 JTAG> >0x40 JTAG> >0x40 JTAG> >0x40 JTAG> >0x2F8 JTAG>TotalIRLen = 9, IRPrint = 0x0011 >0x30 JTAG> >0x410 JTAG> >0x70 JTAG> >0x50 JTAG> >0x40 JTAG>
 >0x50 JTAG>AP-IDR: 0x24770011, Type: AHB-APAHB-AP ROM: 0xE00FF000 (Base addr. of first ROM table) >0x80 JTAG> >0x40 JTAG> >0x30 JTAG> >0x40 JTAG> >0x40 JTAG> >0x30 JTAG> >0x40 JTAG> >0x50 JTAG>Found Cortex-M4 r0p1, Little endian. -- CPU_ReadMem(4 bytes @ 0xE000EDF0) -- CPU_WriteMem(4 bytes @ 0xE000EDF0) -- CPU_ReadMem(4 bytes @ 0xE0002000)FPUnit: 6 code (BP) slots and 2 literal slots -- CPU_ReadMem(4 bytes @ 0xE000EDFC) -- CPU_WriteMem(4 bytes @ 0xE000EDFC) -- CPU_ReadMem(4 bytes @ 0xE0001000)
 -- CPU_WriteMem(4 bytes @ 0xE0001000) -- CPU_ReadMem(4 bytes @ 0xE000ED88) -- CPU_WriteMem(4 bytes @ 0xE000ED88) -- CPU_ReadMem(4 bytes @ 0xE000ED88) -- CPU_WriteMem(4 bytes @ 0xE000ED88)CoreSight components:ROMTbl 0 @ E00FF000 -- CPU_ReadMem(16 bytes @ 0xE00FF000) -- CPU_ReadMem(16 bytes @ 0xE000EFF0) -- CPU_ReadMem(16 bytes @ 0xE000EFE0)ROMTbl 0 [0]: FFF0F000, CID: B105E00D, PID: 000BB00C SCS -- CPU_ReadMem(16 bytes @ 0xE0001FF0) -- CPU_ReadMem(16 bytes @ 0xE0001FE0)
ROMTbl 0 [1]: FFF02000, CID: B105E00D, PID: 003BB002 DWT -- CPU_ReadMem(16 bytes @ 0xE0002FF0) -- CPU_ReadMem(16 bytes @ 0xE0002FE0)ROMTbl 0 [2]: FFF03000, CID: B105E00D, PID: 002BB003 FPB -- CPU_ReadMem(16 bytes @ 0xE0000FF0) -- CPU_ReadMem(16 bytes @ 0xE0000FE0)ROMTbl 0 [3]: FFF01000, CID: B105E00D, PID: 003BB001 ITM -- CPU_ReadMem(16 bytes @ 0xE00FF010) -- CPU_ReadMem(16 bytes @ 0xE0040FF0) -- CPU_ReadMem(16 bytes @ 0xE0040FE0)ROMTbl 0 [4]: FFF41000, CID: B105900D, PID: 000BB9A1 TPIU
 -- CPU_ReadMem(16 bytes @ 0xE0041FF0) -- CPU_ReadMem(16 bytes @ 0xE0041FE0)ROMTbl 0 [5]: FFF42000, CID: B105900D, PID: 000BB925 ETM ScanLen=9 NumDevices=2 aId[0]=0x4BA00477 aIrRead[0]=0 aScanLen[0]=0 aScanRead[0]=0 (0017ms, 0249ms total)
T2354 000:266 JLINK_JTAG_GetDeviceID(DeviceIndex = 0)  returns 0x4BA00477 (0000ms, 0249ms total)
T2354 000:266 JLINK_JTAG_GetDeviceInfo(DeviceIndex = 0)  returns 0x00 (0000ms, 0249ms total)
T2354 000:266 JLINK_JTAG_GetDeviceID(DeviceIndex = 1)  returns 0x6413041 (0000ms, 0249ms total)
T2354 000:266 JLINK_JTAG_GetDeviceInfo(DeviceIndex = 1)  returns 0x00 (0000ms, 0249ms total)
T2354 000:266 JLINK_GetDLLVersion()  returns 61402 (0000ms, 0249ms total)
T2354 000:266 JLINK_CORE_GetFound()  returns 0xE0000FF (0000ms, 0249ms total)
T2354 000:266 JLINK_GetDebugInfo(0x100 = JLINKARM_ROM_TABLE_ADDR_INDEX) -- Value=0xE00FF000  returns 0x00 (0000ms, 0249ms total)
T2354 000:266 JLINK_GetDebugInfo(0x100 = JLINKARM_ROM_TABLE_ADDR_INDEX) -- Value=0xE00FF000  returns 0x00 (0000ms, 0249ms total)
T2354 000:266 JLINK_GetDebugInfo(0x101 = JLINKARM_DEBUG_INFO_ETM_ADDR_INDEX) -- Value=0xE0041000  returns 0x00 (0000ms, 0249ms total)
T2354 000:266 JLINK_GetDebugInfo(0x102 = JLINKARM_DEBUG_INFO_MTB_ADDR_INDEX) -- Value=0x00000000  returns 0x00 (0000ms, 0249ms total)
T2354 000:266 JLINK_GetDebugInfo(0x103 = JLINKARM_DEBUG_INFO_TPIU_ADDR_INDEX) -- Value=0xE0040000  returns 0x00 (0000ms, 0249ms total)
T2354 000:266 JLINK_GetDebugInfo(0x104 = JLINKARM_DEBUG_INFO_ITM_ADDR_INDEX) -- Value=0xE0000000  returns 0x00 (0000ms, 0249ms total)
T2354 000:266 JLINK_GetDebugInfo(0x105 = JLINKARM_DEBUG_INFO_DWT_ADDR_INDEX) -- Value=0xE0001000  returns 0x00 (0000ms, 0249ms total)
T2354 000:266 JLINK_GetDebugInfo(0x106 = JLINKARM_DEBUG_INFO_FPB_ADDR_INDEX) -- Value=0xE0002000  returns 0x00 (0000ms, 0249ms total)
T2354 000:266 JLINK_GetDebugInfo(0x107 = JLINKARM_DEBUG_INFO_NVIC_ADDR_INDEX) -- Value=0xE000E000  returns 0x00 (0000ms, 0249ms total)
T2354 000:266 JLINK_GetDebugInfo(0x10C = JLINKARM_DEBUG_INFO_DBG_ADDR_INDEX) -- Value=0xE000EDF0  returns 0x00 (0000ms, 0249ms total)
T2354 000:266 JLINK_ReadMemU32(0xE000EF40, 0x0001 Items, ...) -- CPU is running -- CPU_ReadMem(4 bytes @ 0xE000EF40) - Data: 21 00 11 10  returns 0x01 (0000ms, 0249ms total)
T2354 000:266 JLINK_ReadMemU32(0xE000EF44, 0x0001 Items, ...) -- CPU is running -- CPU_ReadMem(4 bytes @ 0xE000EF44) - Data: 11 00 00 11  returns 0x01 (0001ms, 0250ms total)
T2354 000:267 JLINK_ReadMemU32(0xE000ED00, 0x0001 Items, ...) -- CPU is running -- CPU_ReadMem(4 bytes @ 0xE000ED00) - Data: 41 C2 0F 41  returns 0x01 (0000ms, 0250ms total)
T2354 000:267 JLINK_SetResetType(JLINKARM_CM3_RESET_TYPE_NORMAL)  returns JLINKARM_CM3_RESET_TYPE_NORMAL (0000ms, 0250ms total)
T2354 000:267 JLINK_Reset() -- CPU is running -- CPU_WriteMem(4 bytes @ 0xE000EDF0) -- CPU is running -- CPU_WriteMem(4 bytes @ 0xE000EDFC) -- CPU is running -- CPU_WriteMem(4 bytes @ 0xE000ED0C) -- CPU is running -- CPU_ReadMem(4 bytes @ 0xE000EDF0) -- CPU is running -- CPU_ReadMem(4 bytes @ 0xE000EDF0) -- CPU is running -- CPU_WriteMem(4 bytes @ 0xE000EDF0) -- CPU is running -- CPU_WriteMem(4 bytes @ 0xE000EDFC) -- CPU is running -- CPU_ReadMem(4 bytes @ 0xE000EDF0) >0x80 JTAG> >0x40 JTAG> >0x30 JTAG>
 >0x40 JTAG> >0x50 JTAG> >0x40 JTAG> -- CPU_WriteMem(4 bytes @ 0xE000EDFC) -- CPU_WriteMem(4 bytes @ 0xE0001028) -- CPU_WriteMem(4 bytes @ 0xE0001038) -- CPU_WriteMem(4 bytes @ 0xE0001048) -- CPU_WriteMem(4 bytes @ 0xE0001058) -- CPU_WriteMem(4 bytes @ 0xE0002000) -- CPU_ReadMem(4 bytes @ 0xE000EDFC) -- CPU_ReadMem(4 bytes @ 0xE0001000) (0018ms, 0268ms total)
T2354 000:285 JLINK_ReadReg(R15 (PC))  returns 0x080002A0 (0000ms, 0268ms total)
T2354 000:285 JLINK_ReadReg(XPSR)  returns 0x01000000 (0000ms, 0268ms total)
T2354 000:285 JLINK_Halt()  returns 0x00 (0000ms, 0268ms total)
T2354 000:285 JLINK_IsHalted()  returns TRUE (0000ms, 0268ms total)
T2354 000:285 JLINK_ReadMemU32(0xE000EDF0, 0x0001 Items, ...) -- CPU_ReadMem(4 bytes @ 0xE000EDF0) - Data: 03 00 03 00  returns 0x01 (0001ms, 0269ms total)
T2354 000:286 JLINK_WriteU32(0xE000EDF0, 0xA05F0003) -- CPU_WriteMem(4 bytes @ 0xE000EDF0)  returns 0x00 (0000ms, 0269ms total)
T2354 000:286 JLINK_WriteU32(0xE000EDFC, 0x01000000) -- CPU_WriteMem(4 bytes @ 0xE000EDFC)  returns 0x00 (0000ms, 0269ms total)
T2354 000:286 JLINK_GetHWStatus(...)  returns 0x00 (0000ms, 0269ms total)
T2354 000:286 JLINK_GetNumBPUnits(Type = 0xFFFFFF00)  returns 0x06 (0000ms, 0269ms total)
T2354 000:286 JLINK_GetNumBPUnits(Type = 0xF0)  returns 0x2000 (0000ms, 0269ms total)
T2354 000:286 JLINK_GetNumWPUnits()  returns 0x04 (0000ms, 0269ms total)
T2354 000:286 JLINK_GetSpeed()  returns 0x1388 (0000ms, 0269ms total)
T2354 000:286 JLINK_ReadMemU32(0xE000E004, 0x0001 Items, ...) -- CPU_ReadMem(4 bytes @ 0xE000E004) - Data: 02 00 00 00  returns 0x01 (0001ms, 0270ms total)
T2354 000:287 JLINK_ReadMemU32(0xE000E004, 0x0001 Items, ...) -- CPU_ReadMem(4 bytes @ 0xE000E004) - Data: 02 00 00 00  returns 0x01 (0000ms, 0270ms total)
T2354 000:287 JLINK_WriteMem(0xE0001000, 0x001C Bytes, ...) - Data: 01 00 00 00 00 00 00 00 00 00 00 00 00 00 00 00 ... -- CPU_WriteMem(28 bytes @ 0xE0001000)  returns 0x1C (0001ms, 0271ms total)
T2354 000:288 JLINK_ReadMem (0xE0001000, 0x001C Bytes, ...) -- CPU_ReadMem(28 bytes @ 0xE0001000) - Data: 01 00 00 40 00 00 00 00 00 00 00 00 00 00 00 00 ...  returns 0x00 (0001ms, 0272ms total)
T2354 000:289 JLINK_ReadReg(R15 (PC))  returns 0x080002A0 (0000ms, 0272ms total)
T2354 000:289 JLINK_ReadReg(XPSR)  returns 0x01000000 (0000ms, 0272ms total)
T2354 000:630 JLINK_SetResetType(JLINKARM_CM3_RESET_TYPE_NORMAL)  returns JLINKARM_CM3_RESET_TYPE_NORMAL (0000ms, 0272ms total)
T2354 000:630 JLINK_Reset() -- CPU_WriteMem(4 bytes @ 0xE000EDF0) -- CPU_WriteMem(4 bytes @ 0xE000EDFC) -- CPU_WriteMem(4 bytes @ 0xE000ED0C) -- CPU_ReadMem(4 bytes @ 0xE000EDF0) -- CPU_ReadMem(4 bytes @ 0xE000EDF0) -- CPU_WriteMem(4 bytes @ 0xE000EDF0) -- CPU_WriteMem(4 bytes @ 0xE000EDFC) -- CPU is running -- CPU_ReadMem(4 bytes @ 0xE000EDF0) >0x80 JTAG> >0x40 JTAG> >0x30 JTAG> >0x40 JTAG> >0x50 JTAG> >0x40 JTAG> -- CPU_WriteMem(4 bytes @ 0xE000EDFC) -- CPU_WriteMem(4 bytes @ 0xE0001028)
 -- CPU_WriteMem(4 bytes @ 0xE0001038) -- CPU_WriteMem(4 bytes @ 0xE0001048) -- CPU_WriteMem(4 bytes @ 0xE0001058) -- CPU_WriteMem(4 bytes @ 0xE0002000) -- CPU_ReadMem(4 bytes @ 0xE000EDFC) -- CPU_ReadMem(4 bytes @ 0xE0001000) (0024ms, 0296ms total)
T2354 000:654 JLINK_ReadReg(R15 (PC))  returns 0x080002A0 (0000ms, 0296ms total)
T2354 000:654 JLINK_ReadReg(XPSR)  returns 0x01000000 (0000ms, 0296ms total)
T2354 000:655 JLINK_ReadMem (0x080001A0, 0x003C Bytes, ...) -- CPU_ReadMem(128 bytes @ 0x08000180) -- Updating C cache (128 bytes @ 0x08000180) -- Read from C cache (60 bytes @ 0x080001A0) - Data: 01 D1 00 F0 53 F8 AF F2 09 0E BA E8 0F 00 13 F0 ...  returns 0x00 (0001ms, 0297ms total)
T2354 000:656 JLINK_ReadMem (0x080001DC, 0x003C Bytes, ...) -- CPU_ReadMem(64 bytes @ 0x08000200) -- Updating C cache (64 bytes @ 0x08000200) -- Read from C cache (60 bytes @ 0x080001DC) - Data: 10 F8 01 5B 64 1E 05 D0 10 F8 01 6B 64 1E 01 F8 ...  returns 0x00 (0001ms, 0298ms total)
T2354 000:657 JLINK_ReadMem (0x08000218, 0x003C Bytes, ...) -- CPU_ReadMem(64 bytes @ 0x08000240) -- Updating C cache (64 bytes @ 0x08000240) -- Read from C cache (60 bytes @ 0x08000218) - Data: 91 42 D6 D3 70 47 00 00 00 23 00 24 00 25 00 26 ...  returns 0x00 (0001ms, 0299ms total)
T2354 000:658 JLINK_ReadMem (0x08000254, 0x003C Bytes, ...) -- CPU_ReadMem(64 bytes @ 0x08000280) -- Updating C cache (64 bytes @ 0x08000280) -- Read from C cache (60 bytes @ 0x08000254) - Data: F3 FF 12 F0 11 FF 00 F0 5F F8 03 B4 FF F7 F2 FF ...  returns 0x00 (0001ms, 0300ms total)
T2354 000:659 JLINK_ReadMem (0x08000290, 0x003C Bytes, ...) -- CPU_ReadMem(64 bytes @ 0x080002C0) -- Updating C cache (64 bytes @ 0x080002C0) -- Read from C cache (60 bytes @ 0x08000290) - Data: C1 F8 00 C0 4A 60 20 F0 00 40 70 47 5C 56 00 20 ...  returns 0x00 (0001ms, 0301ms total)
T1FD4 002:597 JLINK_SetBPEx(Addr = 0x0801307C, Type = 0xFFFFFFF2)  returns 0x00000001 (0000ms, 0301ms total)
T1FD4 002:597 JLINK_Go() -- CPU_ReadMem(4 bytes @ 0xE0001000) -- CPU_WriteMem(4 bytes @ 0xE0002008) -- CPU_WriteMem(4 bytes @ 0xE000200C) -- CPU_WriteMem(4 bytes @ 0xE0002010) -- CPU_WriteMem(4 bytes @ 0xE0002014) -- CPU_WriteMem(4 bytes @ 0xE0002018) -- CPU_WriteMem(4 bytes @ 0xE000201C) -- CPU_WriteMem(4 bytes @ 0xE0001004) (0002ms, 0303ms total)
T1FD4 002:699 JLINK_IsHalted()  returns TRUE (0002ms, 0305ms total)
T1FD4 002:701 JLINK_Halt()  returns 0x00 (0000ms, 0303ms total)
T1FD4 002:701 JLINK_IsHalted()  returns TRUE (0000ms, 0303ms total)
T1FD4 002:701 JLINK_IsHalted()  returns TRUE (0000ms, 0303ms total)
T1FD4 002:701 JLINK_IsHalted()  returns TRUE (0000ms, 0303ms total)
T1FD4 002:701 JLINK_ReadReg(R15 (PC))  returns 0x0801307C (0000ms, 0303ms total)
T1FD4 002:701 JLINK_ReadReg(XPSR)  returns 0x61000000 (0000ms, 0303ms total)
T1FD4 002:701 JLINK_ClrBPEx(BPHandle = 0x00000001)  returns 0x00 (0000ms, 0303ms total)
T1FD4 002:701 JLINK_ReadMemU32(0xE000ED30, 0x0001 Items, ...) -- CPU_ReadMem(4 bytes @ 0xE000ED30) - Data: 02 00 00 00  returns 0x01 (0000ms, 0303ms total)
T1FD4 002:701 JLINK_ReadMemU32(0xE0001028, 0x0001 Items, ...) -- CPU_ReadMem(4 bytes @ 0xE0001028) - Data: 00 00 00 00  returns 0x01 (0000ms, 0303ms total)
T1FD4 002:701 JLINK_ReadMemU32(0xE0001038, 0x0001 Items, ...) -- CPU_ReadMem(4 bytes @ 0xE0001038) - Data: 00 02 00 00  returns 0x01 (0001ms, 0304ms total)
T1FD4 002:702 JLINK_ReadMemU32(0xE0001048, 0x0001 Items, ...) -- CPU_ReadMem(4 bytes @ 0xE0001048) - Data: 00 00 00 00  returns 0x01 (0000ms, 0304ms total)
T1FD4 002:702 JLINK_ReadMemU32(0xE0001058, 0x0001 Items, ...) -- CPU_ReadMem(4 bytes @ 0xE0001058) - Data: 00 00 00 00  returns 0x01 (0000ms, 0304ms total)
T1FD4 002:702 JLINK_ReadReg(R0)  returns 0x200056C8 (0001ms, 0305ms total)
T1FD4 002:703 JLINK_ReadReg(R1)  returns 0x200058C8 (0000ms, 0305ms total)
T1FD4 002:703 JLINK_ReadReg(R2)  returns 0x200058C8 (0000ms, 0305ms total)
T1FD4 002:703 JLINK_ReadReg(R3)  returns 0x200058C8 (0000ms, 0305ms total)
T1FD4 002:703 JLINK_ReadReg(R4)  returns 0x00000000 (0000ms, 0305ms total)
T1FD4 002:703 JLINK_ReadReg(R5)  returns 0x20005664 (0000ms, 0305ms total)
T1FD4 002:703 JLINK_ReadReg(R6)  returns 0x00000000 (0000ms, 0305ms total)
T1FD4 002:703 JLINK_ReadReg(R7)  returns 0x00000000 (0000ms, 0305ms total)
T1FD4 002:703 JLINK_ReadReg(R8)  returns 0x00000000 (0000ms, 0305ms total)
T1FD4 002:703 JLINK_ReadReg(R9)  returns 0x00000000 (0000ms, 0305ms total)
T1FD4 002:703 JLINK_ReadReg(R10)  returns 0x0802E930 (0000ms, 0305ms total)
T1FD4 002:703 JLINK_ReadReg(R11)  returns 0x00000000 (0000ms, 0305ms total)
T1FD4 002:703 JLINK_ReadReg(R12)  returns 0x200056A4 (0000ms, 0305ms total)
T1FD4 002:703 JLINK_ReadReg(R13 (SP))  returns 0x20005CC8 (0000ms, 0305ms total)
T1FD4 002:703 JLINK_ReadReg(R14)  returns 0x0800025B (0000ms, 0305ms total)
T1FD4 002:703 JLINK_ReadReg(R15 (PC))  returns 0x0801307C (0000ms, 0305ms total)
T1FD4 002:703 JLINK_ReadReg(XPSR)  returns 0x61000000 (0000ms, 0305ms total)
T1FD4 002:703 JLINK_ReadReg(MSP)  returns 0x20005CC8 (0000ms, 0305ms total)
T1FD4 002:703 JLINK_ReadReg(PSP)  returns 0x00000000 (0000ms, 0305ms total)
T1FD4 002:703 JLINK_ReadReg(CFBP)  returns 0x04000000 (0000ms, 0305ms total)
T1FD4 002:703 JLINK_ReadReg(FPSCR)  returns 0x03000000 (0002ms, 0307ms total)
T1FD4 002:705 JLINK_ReadReg(FPS0)  returns 0x00000000 (0000ms, 0307ms total)
T1FD4 002:705 JLINK_ReadReg(FPS1)  returns 0x00000000 (0000ms, 0307ms total)
T1FD4 002:705 JLINK_ReadReg(FPS2)  returns 0x00000000 (0000ms, 0307ms total)
T1FD4 002:705 JLINK_ReadReg(FPS3)  returns 0x00000000 (0000ms, 0307ms total)
T1FD4 002:705 JLINK_ReadReg(FPS4)  returns 0x00000000 (0000ms, 0307ms total)
T1FD4 002:705 JLINK_ReadReg(FPS5)  returns 0x00000000 (0000ms, 0307ms total)
T1FD4 002:706 JLINK_ReadReg(FPS6)  returns 0x00000000 (0000ms, 0308ms total)
T1FD4 002:706 JLINK_ReadReg(FPS7)  returns 0x00000000 (0000ms, 0308ms total)
T1FD4 002:706 JLINK_ReadReg(FPS8)  returns 0x00000000 (0000ms, 0308ms total)
T1FD4 002:706 JLINK_ReadReg(FPS9)  returns 0x00000000 (0000ms, 0308ms total)
T1FD4 002:706 JLINK_ReadReg(FPS10)  returns 0x00000000 (0000ms, 0308ms total)
T1FD4 002:706 JLINK_ReadReg(FPS11)  returns 0x00000000 (0000ms, 0308ms total)
T1FD4 002:706 JLINK_ReadReg(FPS12)  returns 0x00000000 (0000ms, 0308ms total)
T1FD4 002:706 JLINK_ReadReg(FPS13)  returns 0x00000000 (0000ms, 0308ms total)
T1FD4 002:706 JLINK_ReadReg(FPS14)  returns 0x00000000 (0000ms, 0308ms total)
T1FD4 002:706 JLINK_ReadReg(FPS15)  returns 0x00000000 (0000ms, 0308ms total)
T1FD4 002:706 JLINK_ReadReg(FPS16)  returns 0x00000000 (0000ms, 0308ms total)
T1FD4 002:706 JLINK_ReadReg(FPS17)  returns 0x00000000 (0000ms, 0308ms total)
T1FD4 002:706 JLINK_ReadReg(FPS18)  returns 0x00000000 (0000ms, 0308ms total)
T1FD4 002:706 JLINK_ReadReg(FPS19)  returns 0x00000000 (0000ms, 0308ms total)
T1FD4 002:706 JLINK_ReadReg(FPS20)  returns 0x00000000 (0000ms, 0308ms total)
T1FD4 002:706 JLINK_ReadReg(FPS21)  returns 0x00000000 (0000ms, 0308ms total)
T1FD4 002:706 JLINK_ReadReg(FPS22)  returns 0x00000000 (0000ms, 0308ms total)
T1FD4 002:706 JLINK_ReadReg(FPS23)  returns 0x00000000 (0000ms, 0308ms total)
T1FD4 002:706 JLINK_ReadReg(FPS24)  returns 0x00000000 (0000ms, 0308ms total)
T1FD4 002:706 JLINK_ReadReg(FPS25)  returns 0x00000000 (0000ms, 0308ms total)
T1FD4 002:706 JLINK_ReadReg(FPS26)  returns 0x00000000 (0000ms, 0308ms total)
T1FD4 002:706 JLINK_ReadReg(FPS27)  returns 0x00000000 (0000ms, 0308ms total)
T1FD4 002:706 JLINK_ReadReg(FPS28)  returns 0x00000000 (0000ms, 0308ms total)
T1FD4 002:706 JLINK_ReadReg(FPS29)  returns 0x00000000 (0000ms, 0308ms total)
T1FD4 002:706 JLINK_ReadReg(FPS30)  returns 0x00000000 (0000ms, 0308ms total)
T1FD4 002:706 JLINK_ReadReg(FPS31)  returns 0x00000000 (0000ms, 0308ms total)
T2354 002:712 JLINK_ReadMem (0x00000000, 0x0002 Bytes, ...) -- CPU_ReadMem(4 bytes @ 0x00000004) -- CPU_ReadMem(64 bytes @ 0x08000000) -- Updating C cache (64 bytes @ 0x08000000) -- Read from C cache (2 bytes @ 0x08000000) - Data: C8 5C  returns 0x00 (0001ms, 0309ms total)
T2354 002:717 JLINK_ReadMemU32(0xE0001004, 0x0001 Items, ...) -- CPU_ReadMem(4 bytes @ 0xE0001004) - Data: 4D 6C 00 00  returns 0x01 (0000ms, 0309ms total)
T2354 002:719 JLINK_ReadMem (0x08012FA0, 0x003C Bytes, ...) -- CPU_ReadMem(128 bytes @ 0x08012F80) -- Updating C cache (128 bytes @ 0x08012F80) -- Read from C cache (60 bytes @ 0x08012FA0) - Data: 7C B5 05 46 0B 49 B1 F9 3C 00 F1 F7 93 FB 04 46 ...  returns 0x00 (0001ms, 0310ms total)
T2354 002:720 JLINK_ReadMem (0x08012FDC, 0x0024 Bytes, ...) -- Read from C cache (36 bytes @ 0x08012FDC) - Data: 20 68 0E 28 02 D0 0F 28 18 D1 07 E0 A5 68 68 68 ...  returns 0x00 (0001ms, 0311ms total)
T2354 002:721 JLINK_ReadMem (0x08013000, 0x0018 Bytes, ...) -- CPU_ReadMem(64 bytes @ 0x08013000) -- Updating C cache (64 bytes @ 0x08013000) -- Read from C cache (24 bytes @ 0x08013000) - Data: 6F F0 70 41 88 42 06 D0 06 49 51 F8 26 00 F3 F7 ...  returns 0x00 (0000ms, 0311ms total)
T2354 002:721 JLINK_ReadMem (0x08013018, 0x003C Bytes, ...) -- CPU_ReadMem(64 bytes @ 0x08013040) -- Updating C cache (64 bytes @ 0x08013040) -- Read from C cache (60 bytes @ 0x08013018) - Data: 20 46 F6 F7 55 FD 00 BF 00 BF 70 BD D0 01 00 20 ...  returns 0x00 (0001ms, 0312ms total)
T2354 002:722 JLINK_ReadMem (0x08013054, 0x003C Bytes, ...) -- CPU_ReadMem(64 bytes @ 0x08013080) -- Updating C cache (64 bytes @ 0x08013080) -- Read from C cache (60 bytes @ 0x08013054) - Data: C0 00 02 49 08 80 10 BD 02 00 00 20 04 00 00 20 ...  returns 0x00 (0000ms, 0312ms total)
T1FD4 004:384 JLINK_Step() -- Read from C cache (2 bytes @ 0x0801307C) -- CPU_ReadMem(4 bytes @ 0xE000ED18) -- CPU_WriteMem(4 bytes @ 0xE000ED18) -- CPU_ReadMem(4 bytes @ 0xE000ED18) -- CPU_WriteMem(4 bytes @ 0xE000ED18) -- Simulated  returns 0x00 (0002ms, 0314ms total)
T1FD4 004:386 JLINK_ReadReg(R15 (PC))  returns 0x0801307E (0000ms, 0314ms total)
T1FD4 004:386 JLINK_ReadReg(XPSR)  returns 0x21000000 (0000ms, 0314ms total)
T1FD4 004:386 JLINK_SetBPEx(Addr = 0x08013082, Type = 0xFFFFFFF2)  returns 0x00000002 (0000ms, 0314ms total)
T1FD4 004:386 JLINK_Go() -- CPU_ReadMem(4 bytes @ 0xE0001000) -- CPU_WriteMem(4 bytes @ 0xE0002008) -- CPU_WriteMem(4 bytes @ 0xE0001004) (0002ms, 0316ms total)
T1FD4 004:489 JLINK_IsHalted()  returns TRUE (0002ms, 0318ms total)
T1FD4 004:491 JLINK_Halt()  returns 0x00 (0000ms, 0316ms total)
T1FD4 004:491 JLINK_IsHalted()  returns TRUE (0000ms, 0316ms total)
T1FD4 004:491 JLINK_IsHalted()  returns TRUE (0000ms, 0316ms total)
T1FD4 004:491 JLINK_IsHalted()  returns TRUE (0000ms, 0316ms total)
T1FD4 004:491 JLINK_ReadReg(R15 (PC))  returns 0x08013082 (0000ms, 0316ms total)
T1FD4 004:491 JLINK_ReadReg(XPSR)  returns 0x41000000 (0000ms, 0316ms total)
T1FD4 004:491 JLINK_ClrBPEx(BPHandle = 0x00000002)  returns 0x00 (0000ms, 0316ms total)
T1FD4 004:491 JLINK_ReadMemU32(0xE000ED30, 0x0001 Items, ...) -- CPU_ReadMem(4 bytes @ 0xE000ED30) - Data: 02 00 00 00  returns 0x01 (0000ms, 0316ms total)
T1FD4 004:491 JLINK_ReadMemU32(0xE0001028, 0x0001 Items, ...) -- CPU_ReadMem(4 bytes @ 0xE0001028) - Data: 00 00 00 00  returns 0x01 (0001ms, 0317ms total)
T1FD4 004:492 JLINK_ReadMemU32(0xE0001038, 0x0001 Items, ...) -- CPU_ReadMem(4 bytes @ 0xE0001038) - Data: 00 02 00 00  returns 0x01 (0000ms, 0317ms total)
T1FD4 004:492 JLINK_ReadMemU32(0xE0001048, 0x0001 Items, ...) -- CPU_ReadMem(4 bytes @ 0xE0001048) - Data: 00 00 00 00  returns 0x01 (0001ms, 0318ms total)
T1FD4 004:493 JLINK_ReadMemU32(0xE0001058, 0x0001 Items, ...) -- CPU_ReadMem(4 bytes @ 0xE0001058) - Data: 00 00 00 00  returns 0x01 (0000ms, 0318ms total)
T1FD4 004:494 JLINK_ReadReg(R0)  returns 0x00005208 (0000ms, 0318ms total)
T1FD4 004:494 JLINK_ReadReg(R1)  returns 0x20000004 (0000ms, 0318ms total)
T1FD4 004:494 JLINK_ReadReg(R2)  returns 0x20000002 (0000ms, 0318ms total)
T1FD4 004:494 JLINK_ReadReg(R3)  returns 0x200058C8 (0000ms, 0318ms total)
T1FD4 004:494 JLINK_ReadReg(R4)  returns 0x00000000 (0000ms, 0318ms total)
T1FD4 004:494 JLINK_ReadReg(R5)  returns 0x20005664 (0000ms, 0318ms total)
T1FD4 004:494 JLINK_ReadReg(R6)  returns 0x00000000 (0000ms, 0318ms total)
T1FD4 004:494 JLINK_ReadReg(R7)  returns 0x00000000 (0000ms, 0318ms total)
T1FD4 004:494 JLINK_ReadReg(R8)  returns 0x00000000 (0000ms, 0318ms total)
T1FD4 004:494 JLINK_ReadReg(R9)  returns 0x00000000 (0000ms, 0318ms total)
T1FD4 004:494 JLINK_ReadReg(R10)  returns 0x0802E930 (0000ms, 0318ms total)
T1FD4 004:494 JLINK_ReadReg(R11)  returns 0x00000000 (0000ms, 0318ms total)
T1FD4 004:494 JLINK_ReadReg(R12)  returns 0x200056A4 (0000ms, 0318ms total)
T1FD4 004:494 JLINK_ReadReg(R13 (SP))  returns 0x20005CC8 (0000ms, 0318ms total)
T1FD4 004:494 JLINK_ReadReg(R14)  returns 0x08013035 (0000ms, 0318ms total)
T1FD4 004:494 JLINK_ReadReg(R15 (PC))  returns 0x08013082 (0000ms, 0318ms total)
T1FD4 004:494 JLINK_ReadReg(XPSR)  returns 0x41000000 (0000ms, 0318ms total)
T1FD4 004:494 JLINK_ReadReg(MSP)  returns 0x20005CC8 (0000ms, 0318ms total)
T1FD4 004:494 JLINK_ReadReg(PSP)  returns 0x00000000 (0000ms, 0318ms total)
T1FD4 004:494 JLINK_ReadReg(CFBP)  returns 0x04000000 (0001ms, 0319ms total)
T1FD4 004:495 JLINK_ReadReg(FPSCR)  returns 0x03000000 (0002ms, 0321ms total)
T1FD4 004:497 JLINK_ReadReg(FPS0)  returns 0x00000000 (0000ms, 0321ms total)
T1FD4 004:497 JLINK_ReadReg(FPS1)  returns 0x00000000 (0001ms, 0322ms total)
T1FD4 004:498 JLINK_ReadReg(FPS2)  returns 0x00000000 (0000ms, 0322ms total)
T1FD4 004:498 JLINK_ReadReg(FPS3)  returns 0x00000000 (0000ms, 0322ms total)
T1FD4 004:498 JLINK_ReadReg(FPS4)  returns 0x00000000 (0000ms, 0322ms total)
T1FD4 004:498 JLINK_ReadReg(FPS5)  returns 0x00000000 (0000ms, 0322ms total)
T1FD4 004:498 JLINK_ReadReg(FPS6)  returns 0x00000000 (0000ms, 0322ms total)
T1FD4 004:498 JLINK_ReadReg(FPS7)  returns 0x00000000 (0000ms, 0322ms total)
T1FD4 004:498 JLINK_ReadReg(FPS8)  returns 0x00000000 (0000ms, 0322ms total)
T1FD4 004:498 JLINK_ReadReg(FPS9)  returns 0x00000000 (0000ms, 0322ms total)
T1FD4 004:498 JLINK_ReadReg(FPS10)  returns 0x00000000 (0000ms, 0322ms total)
T1FD4 004:498 JLINK_ReadReg(FPS11)  returns 0x00000000 (0000ms, 0322ms total)
T1FD4 004:498 JLINK_ReadReg(FPS12)  returns 0x00000000 (0000ms, 0322ms total)
T1FD4 004:498 JLINK_ReadReg(FPS13)  returns 0x00000000 (0000ms, 0322ms total)
T1FD4 004:498 JLINK_ReadReg(FPS14)  returns 0x00000000 (0000ms, 0322ms total)
T1FD4 004:498 JLINK_ReadReg(FPS15)  returns 0x00000000 (0000ms, 0322ms total)
T1FD4 004:498 JLINK_ReadReg(FPS16)  returns 0x00000000 (0000ms, 0322ms total)
T1FD4 004:498 JLINK_ReadReg(FPS17)  returns 0x00000000 (0000ms, 0322ms total)
T1FD4 004:498 JLINK_ReadReg(FPS18)  returns 0x00000000 (0000ms, 0322ms total)
T1FD4 004:498 JLINK_ReadReg(FPS19)  returns 0x00000000 (0000ms, 0322ms total)
T1FD4 004:498 JLINK_ReadReg(FPS20)  returns 0x00000000 (0000ms, 0322ms total)
T1FD4 004:498 JLINK_ReadReg(FPS21)  returns 0x00000000 (0000ms, 0322ms total)
T1FD4 004:498 JLINK_ReadReg(FPS22)  returns 0x00000000 (0000ms, 0322ms total)
T1FD4 004:498 JLINK_ReadReg(FPS23)  returns 0x00000000 (0000ms, 0322ms total)
T1FD4 004:498 JLINK_ReadReg(FPS24)  returns 0x00000000 (0000ms, 0322ms total)
T1FD4 004:498 JLINK_ReadReg(FPS25)  returns 0x00000000 (0000ms, 0322ms total)
T1FD4 004:499 JLINK_ReadReg(FPS26)  returns 0x00000000 (0000ms, 0322ms total)
T1FD4 004:499 JLINK_ReadReg(FPS27)  returns 0x00000000 (0000ms, 0322ms total)
T1FD4 004:499 JLINK_ReadReg(FPS28)  returns 0x00000000 (0000ms, 0322ms total)
T1FD4 004:499 JLINK_ReadReg(FPS29)  returns 0x00000000 (0000ms, 0322ms total)
T1FD4 004:499 JLINK_ReadReg(FPS30)  returns 0x00000000 (0000ms, 0322ms total)
T1FD4 004:499 JLINK_ReadReg(FPS31)  returns 0x00000000 (0000ms, 0322ms total)
T2354 004:501 JLINK_ReadMem (0x00000000, 0x0002 Bytes, ...) -- CPU_ReadMem(4 bytes @ 0x00000004) -- CPU_ReadMem(64 bytes @ 0x08000000) -- Updating C cache (64 bytes @ 0x08000000) -- Read from C cache (2 bytes @ 0x08000000) - Data: C8 5C  returns 0x00 (0002ms, 0324ms total)
T2354 004:503 JLINK_ReadMemU32(0xE0001004, 0x0001 Items, ...) -- CPU_ReadMem(4 bytes @ 0xE0001004) - Data: 8D 6C 00 00  returns 0x01 (0000ms, 0324ms total)
T1FD4 004:830 JLINK_ReadMem (0x08013082, 0x0002 Bytes, ...) -- CPU_ReadMem(64 bytes @ 0x08013080) -- Updating C cache (64 bytes @ 0x08013080) -- Read from C cache (2 bytes @ 0x08013082) - Data: ED F7  returns 0x00 (0001ms, 0325ms total)
T1FD4 004:831 JLINK_ReadMem (0x08013084, 0x003C Bytes, ...) -- Read from C cache (60 bytes @ 0x08013084) - Data: A7 FB ED F7 E7 FB F2 F7 E9 FB 01 20 ED F7 62 FF ...  returns 0x00 (0000ms, 0325ms total)
T1FD4 004:831 JLINK_SetBPEx(Addr = 0x08013086, Type = 0xFFFFFFF2)  returns 0x00000003 (0001ms, 0326ms total)
T1FD4 004:832 JLINK_Go() -- CPU_ReadMem(4 bytes @ 0xE0001000) -- CPU_WriteMem(4 bytes @ 0xE0002008) (0001ms, 0327ms total)
T1FD4 004:934 JLINK_IsHalted()  returns TRUE (0002ms, 0329ms total)
T1FD4 004:936 JLINK_Halt()  returns 0x00 (0000ms, 0327ms total)
T1FD4 004:936 JLINK_IsHalted()  returns TRUE (0000ms, 0327ms total)
T1FD4 004:936 JLINK_IsHalted()  returns TRUE (0000ms, 0327ms total)
T1FD4 004:936 JLINK_IsHalted()  returns TRUE (0000ms, 0327ms total)
T1FD4 004:936 JLINK_ReadReg(R15 (PC))  returns 0x08013086 (0000ms, 0327ms total)
T1FD4 004:936 JLINK_ReadReg(XPSR)  returns 0x21000000 (0000ms, 0327ms total)
T1FD4 004:936 JLINK_ClrBPEx(BPHandle = 0x00000003)  returns 0x00 (0000ms, 0327ms total)
T1FD4 004:936 JLINK_ReadMemU32(0xE000ED30, 0x0001 Items, ...) -- CPU_ReadMem(4 bytes @ 0xE000ED30) - Data: 02 00 00 00  returns 0x01 (0000ms, 0327ms total)
T1FD4 004:937 JLINK_ReadMemU32(0xE0001028, 0x0001 Items, ...) -- CPU_ReadMem(4 bytes @ 0xE0001028) - Data: 00 00 00 00  returns 0x01 (0000ms, 0327ms total)
T1FD4 004:937 JLINK_ReadMemU32(0xE0001038, 0x0001 Items, ...) -- CPU_ReadMem(4 bytes @ 0xE0001038) - Data: 00 02 00 00  returns 0x01 (0000ms, 0327ms total)
T1FD4 004:938 JLINK_ReadMemU32(0xE0001048, 0x0001 Items, ...) -- CPU_ReadMem(4 bytes @ 0xE0001048) - Data: 00 00 00 00  returns 0x01 (0000ms, 0328ms total)
T1FD4 004:938 JLINK_ReadMemU32(0xE0001058, 0x0001 Items, ...) -- CPU_ReadMem(4 bytes @ 0xE0001058) - Data: 00 00 00 00  returns 0x01 (0001ms, 0329ms total)
T1FD4 004:939 JLINK_ReadReg(R0)  returns 0x40012000 (0000ms, 0329ms total)
T1FD4 004:939 JLINK_ReadReg(R1)  returns 0x00000001 (0000ms, 0329ms total)
T1FD4 004:939 JLINK_ReadReg(R2)  returns 0x00000001 (0000ms, 0329ms total)
T1FD4 004:939 JLINK_ReadReg(R3)  returns 0x00000000 (0000ms, 0329ms total)
T1FD4 004:939 JLINK_ReadReg(R4)  returns 0x00000000 (0000ms, 0329ms total)
T1FD4 004:939 JLINK_ReadReg(R5)  returns 0x20005664 (0000ms, 0329ms total)
T1FD4 004:939 JLINK_ReadReg(R6)  returns 0x00000000 (0000ms, 0329ms total)
T1FD4 004:939 JLINK_ReadReg(R7)  returns 0x00000000 (0000ms, 0329ms total)
T1FD4 004:939 JLINK_ReadReg(R8)  returns 0x00000000 (0000ms, 0329ms total)
T1FD4 004:939 JLINK_ReadReg(R9)  returns 0x00000000 (0000ms, 0329ms total)
T1FD4 004:939 JLINK_ReadReg(R10)  returns 0x0802E930 (0000ms, 0329ms total)
T1FD4 004:939 JLINK_ReadReg(R11)  returns 0x00000000 (0000ms, 0329ms total)
T1FD4 004:939 JLINK_ReadReg(R12)  returns 0x200056A4 (0000ms, 0329ms total)
T1FD4 004:939 JLINK_ReadReg(R13 (SP))  returns 0x20005CC8 (0000ms, 0329ms total)
T1FD4 004:939 JLINK_ReadReg(R14)  returns 0x0800084D (0000ms, 0329ms total)
T1FD4 004:939 JLINK_ReadReg(R15 (PC))  returns 0x08013086 (0000ms, 0329ms total)
T1FD4 004:939 JLINK_ReadReg(XPSR)  returns 0x21000000 (0000ms, 0329ms total)
T1FD4 004:939 JLINK_ReadReg(MSP)  returns 0x20005CC8 (0000ms, 0329ms total)
T1FD4 004:939 JLINK_ReadReg(PSP)  returns 0x00000000 (0000ms, 0329ms total)
T1FD4 004:940 JLINK_ReadReg(CFBP)  returns 0x04000000 (0000ms, 0329ms total)
T1FD4 004:940 JLINK_ReadReg(FPSCR)  returns 0x03000000 (0002ms, 0331ms total)
T1FD4 004:942 JLINK_ReadReg(FPS0)  returns 0x00000000 (0000ms, 0331ms total)
T1FD4 004:942 JLINK_ReadReg(FPS1)  returns 0x00000000 (0000ms, 0331ms total)
T1FD4 004:942 JLINK_ReadReg(FPS2)  returns 0x00000000 (0000ms, 0331ms total)
T1FD4 004:942 JLINK_ReadReg(FPS3)  returns 0x00000000 (0000ms, 0331ms total)
T1FD4 004:942 JLINK_ReadReg(FPS4)  returns 0x00000000 (0000ms, 0331ms total)
T1FD4 004:942 JLINK_ReadReg(FPS5)  returns 0x00000000 (0000ms, 0331ms total)
T1FD4 004:942 JLINK_ReadReg(FPS6)  returns 0x00000000 (0000ms, 0331ms total)
T1FD4 004:942 JLINK_ReadReg(FPS7)  returns 0x00000000 (0001ms, 0332ms total)
T1FD4 004:943 JLINK_ReadReg(FPS8)  returns 0x00000000 (0000ms, 0332ms total)
T1FD4 004:943 JLINK_ReadReg(FPS9)  returns 0x00000000 (0000ms, 0332ms total)
T1FD4 004:943 JLINK_ReadReg(FPS10)  returns 0x00000000 (0000ms, 0332ms total)
T1FD4 004:943 JLINK_ReadReg(FPS11)  returns 0x00000000 (0000ms, 0332ms total)
T1FD4 004:943 JLINK_ReadReg(FPS12)  returns 0x00000000 (0000ms, 0332ms total)
T1FD4 004:943 JLINK_ReadReg(FPS13)  returns 0x00000000 (0000ms, 0332ms total)
T1FD4 004:943 JLINK_ReadReg(FPS14)  returns 0x00000000 (0000ms, 0332ms total)
T1FD4 004:943 JLINK_ReadReg(FPS15)  returns 0x00000000 (0000ms, 0332ms total)
T1FD4 004:943 JLINK_ReadReg(FPS16)  returns 0x00000000 (0000ms, 0332ms total)
T1FD4 004:943 JLINK_ReadReg(FPS17)  returns 0x00000000 (0000ms, 0332ms total)
T1FD4 004:943 JLINK_ReadReg(FPS18)  returns 0x00000000 (0000ms, 0332ms total)
T1FD4 004:943 JLINK_ReadReg(FPS19)  returns 0x00000000 (0000ms, 0332ms total)
T1FD4 004:943 JLINK_ReadReg(FPS20)  returns 0x00000000 (0000ms, 0332ms total)
T1FD4 004:943 JLINK_ReadReg(FPS21)  returns 0x00000000 (0000ms, 0332ms total)
T1FD4 004:943 JLINK_ReadReg(FPS22)  returns 0x00000000 (0000ms, 0332ms total)
T1FD4 004:943 JLINK_ReadReg(FPS23)  returns 0x00000000 (0000ms, 0332ms total)
T1FD4 004:943 JLINK_ReadReg(FPS24)  returns 0x00000000 (0000ms, 0332ms total)
T1FD4 004:943 JLINK_ReadReg(FPS25)  returns 0x00000000 (0000ms, 0332ms total)
T1FD4 004:943 JLINK_ReadReg(FPS26)  returns 0x00000000 (0000ms, 0332ms total)
T1FD4 004:943 JLINK_ReadReg(FPS27)  returns 0x00000000 (0000ms, 0332ms total)
T1FD4 004:943 JLINK_ReadReg(FPS28)  returns 0x00000000 (0000ms, 0332ms total)
T1FD4 004:943 JLINK_ReadReg(FPS29)  returns 0x00000000 (0000ms, 0332ms total)
T1FD4 004:943 JLINK_ReadReg(FPS30)  returns 0x00000000 (0000ms, 0332ms total)
T1FD4 004:943 JLINK_ReadReg(FPS31)  returns 0x00000000 (0000ms, 0332ms total)
T2354 004:946 JLINK_ReadMem (0x00000000, 0x0002 Bytes, ...) -- CPU_ReadMem(4 bytes @ 0x00000004) -- CPU_ReadMem(64 bytes @ 0x08000000) -- Updating C cache (64 bytes @ 0x08000000) -- Read from C cache (2 bytes @ 0x08000000) - Data: C8 5C  returns 0x00 (0001ms, 0333ms total)
T2354 004:947 JLINK_ReadMemU32(0xE0001004, 0x0001 Items, ...) -- CPU_ReadMem(4 bytes @ 0xE0001004) - Data: FD 6E 00 00  returns 0x01 (0001ms, 0334ms total)
T2354 004:965 JLINK_ReadMem (0x08013086, 0x0002 Bytes, ...) -- CPU_ReadMem(64 bytes @ 0x08013080) -- Updating C cache (64 bytes @ 0x08013080) -- Read from C cache (2 bytes @ 0x08013086) - Data: ED F7  returns 0x00 (0001ms, 0335ms total)
T2354 004:966 JLINK_ReadMem (0x08013088, 0x003C Bytes, ...) -- CPU_ReadMem(64 bytes @ 0x080130C0) -- Updating C cache (64 bytes @ 0x080130C0) -- Read from C cache (60 bytes @ 0x08013088) - Data: E7 FB F2 F7 E9 FB 01 20 ED F7 62 FF F5 F7 FE FF ...  returns 0x00 (0001ms, 0336ms total)
T1FD4 005:230 JLINK_SetBPEx(Addr = 0x0801308A, Type = 0xFFFFFFF2)  returns 0x00000004 (0000ms, 0336ms total)
T1FD4 005:230 JLINK_Go() -- CPU_ReadMem(4 bytes @ 0xE0001000) -- CPU_WriteMem(4 bytes @ 0xE0002008) (0001ms, 0337ms total)
T1FD4 005:332 JLINK_IsHalted()  returns TRUE (0002ms, 0339ms total)
T1FD4 005:334 JLINK_Halt()  returns 0x00 (0000ms, 0337ms total)
T1FD4 005:334 JLINK_IsHalted()  returns TRUE (0000ms, 0337ms total)
T1FD4 005:334 JLINK_IsHalted()  returns TRUE (0000ms, 0337ms total)
T1FD4 005:334 JLINK_IsHalted()  returns TRUE (0000ms, 0337ms total)
T1FD4 005:334 JLINK_ReadReg(R15 (PC))  returns 0x0801308A (0000ms, 0337ms total)
T1FD4 005:334 JLINK_ReadReg(XPSR)  returns 0x21000000 (0000ms, 0337ms total)
T1FD4 005:334 JLINK_ClrBPEx(BPHandle = 0x00000004)  returns 0x00 (0000ms, 0337ms total)
T1FD4 005:334 JLINK_ReadMemU32(0xE000ED30, 0x0001 Items, ...) -- CPU_ReadMem(4 bytes @ 0xE000ED30) - Data: 02 00 00 00  returns 0x01 (0001ms, 0338ms total)
T1FD4 005:335 JLINK_ReadMemU32(0xE0001028, 0x0001 Items, ...) -- CPU_ReadMem(4 bytes @ 0xE0001028) - Data: 00 00 00 00  returns 0x01 (0000ms, 0338ms total)
T1FD4 005:335 JLINK_ReadMemU32(0xE0001038, 0x0001 Items, ...) -- CPU_ReadMem(4 bytes @ 0xE0001038) - Data: 00 02 00 00  returns 0x01 (0000ms, 0338ms total)
T1FD4 005:335 JLINK_ReadMemU32(0xE0001048, 0x0001 Items, ...) -- CPU_ReadMem(4 bytes @ 0xE0001048) - Data: 00 00 00 00  returns 0x01 (0001ms, 0339ms total)
T1FD4 005:336 JLINK_ReadMemU32(0xE0001058, 0x0001 Items, ...) -- CPU_ReadMem(4 bytes @ 0xE0001058) - Data: 00 00 00 00  returns 0x01 (0000ms, 0339ms total)
T1FD4 005:336 JLINK_ReadReg(R0)  returns 0x00000040 (0000ms, 0339ms total)
T1FD4 005:336 JLINK_ReadReg(R1)  returns 0x00000001 (0000ms, 0339ms total)
T1FD4 005:336 JLINK_ReadReg(R2)  returns 0x0010007F (0000ms, 0339ms total)
T1FD4 005:336 JLINK_ReadReg(R3)  returns 0x00000007 (0000ms, 0339ms total)
T1FD4 005:336 JLINK_ReadReg(R4)  returns 0x00000000 (0000ms, 0339ms total)
T1FD4 005:336 JLINK_ReadReg(R5)  returns 0x20005664 (0000ms, 0339ms total)
T1FD4 005:336 JLINK_ReadReg(R6)  returns 0x00000000 (0000ms, 0339ms total)
T1FD4 005:336 JLINK_ReadReg(R7)  returns 0x00000000 (0000ms, 0339ms total)
T1FD4 005:336 JLINK_ReadReg(R8)  returns 0x00000000 (0000ms, 0339ms total)
T1FD4 005:336 JLINK_ReadReg(R9)  returns 0x00000000 (0000ms, 0339ms total)
T1FD4 005:336 JLINK_ReadReg(R10)  returns 0x0802E930 (0000ms, 0339ms total)
T1FD4 005:337 JLINK_ReadReg(R11)  returns 0x00000000 (0000ms, 0340ms total)
T1FD4 005:337 JLINK_ReadReg(R12)  returns 0x200056A4 (0000ms, 0340ms total)
T1FD4 005:337 JLINK_ReadReg(R13 (SP))  returns 0x20005CC8 (0000ms, 0340ms total)
T1FD4 005:337 JLINK_ReadReg(R14)  returns 0x080008F9 (0000ms, 0340ms total)
T1FD4 005:337 JLINK_ReadReg(R15 (PC))  returns 0x0801308A (0000ms, 0340ms total)
T1FD4 005:337 JLINK_ReadReg(XPSR)  returns 0x21000000 (0000ms, 0340ms total)
T1FD4 005:337 JLINK_ReadReg(MSP)  returns 0x20005CC8 (0000ms, 0340ms total)
T1FD4 005:337 JLINK_ReadReg(PSP)  returns 0x00000000 (0000ms, 0340ms total)
T1FD4 005:337 JLINK_ReadReg(CFBP)  returns 0x04000000 (0000ms, 0340ms total)
T1FD4 005:337 JLINK_ReadReg(FPSCR)  returns 0x03000000 (0003ms, 0343ms total)
T1FD4 005:340 JLINK_ReadReg(FPS0)  returns 0x00000000 (0000ms, 0343ms total)
T1FD4 005:340 JLINK_ReadReg(FPS1)  returns 0x00000000 (0000ms, 0343ms total)
T1FD4 005:340 JLINK_ReadReg(FPS2)  returns 0x00000000 (0000ms, 0343ms total)
T1FD4 005:340 JLINK_ReadReg(FPS3)  returns 0x00000000 (0000ms, 0343ms total)
T1FD4 005:340 JLINK_ReadReg(FPS4)  returns 0x00000000 (0000ms, 0343ms total)
T1FD4 005:340 JLINK_ReadReg(FPS5)  returns 0x00000000 (0000ms, 0343ms total)
T1FD4 005:340 JLINK_ReadReg(FPS6)  returns 0x00000000 (0000ms, 0343ms total)
T1FD4 005:340 JLINK_ReadReg(FPS7)  returns 0x00000000 (0000ms, 0343ms total)
T1FD4 005:340 JLINK_ReadReg(FPS8)  returns 0x00000000 (0000ms, 0343ms total)
T1FD4 005:340 JLINK_ReadReg(FPS9)  returns 0x00000000 (0000ms, 0343ms total)
T1FD4 005:340 JLINK_ReadReg(FPS10)  returns 0x00000000 (0000ms, 0343ms total)
T1FD4 005:340 JLINK_ReadReg(FPS11)  returns 0x00000000 (0000ms, 0343ms total)
T1FD4 005:340 JLINK_ReadReg(FPS12)  returns 0x00000000 (0000ms, 0343ms total)
T1FD4 005:340 JLINK_ReadReg(FPS13)  returns 0x00000000 (0000ms, 0343ms total)
T1FD4 005:340 JLINK_ReadReg(FPS14)  returns 0x00000000 (0000ms, 0343ms total)
T1FD4 005:340 JLINK_ReadReg(FPS15)  returns 0x00000000 (0000ms, 0343ms total)
T1FD4 005:340 JLINK_ReadReg(FPS16)  returns 0x00000000 (0000ms, 0343ms total)
T1FD4 005:340 JLINK_ReadReg(FPS17)  returns 0x00000000 (0000ms, 0343ms total)
T1FD4 005:340 JLINK_ReadReg(FPS18)  returns 0x00000000 (0000ms, 0343ms total)
T1FD4 005:340 JLINK_ReadReg(FPS19)  returns 0x00000000 (0000ms, 0343ms total)
T1FD4 005:340 JLINK_ReadReg(FPS20)  returns 0x00000000 (0000ms, 0343ms total)
T1FD4 005:340 JLINK_ReadReg(FPS21)  returns 0x00000000 (0000ms, 0343ms total)
T1FD4 005:340 JLINK_ReadReg(FPS22)  returns 0x00000000 (0000ms, 0343ms total)
T1FD4 005:340 JLINK_ReadReg(FPS23)  returns 0x00000000 (0000ms, 0343ms total)
T1FD4 005:340 JLINK_ReadReg(FPS24)  returns 0x00000000 (0000ms, 0343ms total)
T1FD4 005:340 JLINK_ReadReg(FPS25)  returns 0x00000000 (0000ms, 0343ms total)
T1FD4 005:340 JLINK_ReadReg(FPS26)  returns 0x00000000 (0001ms, 0344ms total)
T1FD4 005:341 JLINK_ReadReg(FPS27)  returns 0x00000000 (0000ms, 0344ms total)
T1FD4 005:341 JLINK_ReadReg(FPS28)  returns 0x00000000 (0000ms, 0344ms total)
T1FD4 005:341 JLINK_ReadReg(FPS29)  returns 0x00000000 (0000ms, 0344ms total)
T1FD4 005:341 JLINK_ReadReg(FPS30)  returns 0x00000000 (0000ms, 0344ms total)
T1FD4 005:341 JLINK_ReadReg(FPS31)  returns 0x00000000 (0000ms, 0344ms total)
T2354 005:342 JLINK_ReadMem (0x00000000, 0x0002 Bytes, ...) -- CPU_ReadMem(4 bytes @ 0x00000004) -- CPU_ReadMem(64 bytes @ 0x08000000) -- Updating C cache (64 bytes @ 0x08000000) -- Read from C cache (2 bytes @ 0x08000000) - Data: C8 5C  returns 0x00 (0001ms, 0345ms total)
T2354 005:343 JLINK_ReadMemU32(0xE0001004, 0x0001 Items, ...) -- CPU_ReadMem(4 bytes @ 0xE0001004) - Data: 3D 7E 00 00  returns 0x01 (0001ms, 0346ms total)
T2354 005:353 JLINK_ReadMem (0x08013086, 0x0002 Bytes, ...) -- CPU_ReadMem(64 bytes @ 0x08013080) -- Updating C cache (64 bytes @ 0x08013080) -- Read from C cache (2 bytes @ 0x08013086) - Data: ED F7  returns 0x00 (0001ms, 0347ms total)
T2354 005:354 JLINK_ReadMem (0x08013088, 0x003C Bytes, ...) -- CPU_ReadMem(64 bytes @ 0x080130C0) -- Updating C cache (64 bytes @ 0x080130C0) -- Read from C cache (60 bytes @ 0x08013088) - Data: E7 FB F2 F7 E9 FB 01 20 ED F7 62 FF F5 F7 FE FF ...  returns 0x00 (0001ms, 0348ms total)
T1FD4 005:622 JLINK_SetBPEx(Addr = 0x0801308E, Type = 0xFFFFFFF2)  returns 0x00000005 (0000ms, 0348ms total)
T1FD4 005:622 JLINK_Go() -- CPU_ReadMem(4 bytes @ 0xE0001000) -- CPU_WriteMem(4 bytes @ 0xE0002008) (0001ms, 0349ms total)
T1FD4 005:725 JLINK_IsHalted()  returns TRUE (0001ms, 0351ms total)
T1FD4 005:727 JLINK_Halt()  returns 0x00 (0000ms, 0350ms total)
T1FD4 005:727 JLINK_IsHalted()  returns TRUE (0000ms, 0350ms total)
T1FD4 005:727 JLINK_IsHalted()  returns TRUE (0000ms, 0350ms total)
T1FD4 005:727 JLINK_IsHalted()  returns TRUE (0000ms, 0350ms total)
T1FD4 005:727 JLINK_ReadReg(R15 (PC))  returns 0x0801308E (0000ms, 0350ms total)
T1FD4 005:727 JLINK_ReadReg(XPSR)  returns 0x01000000 (0000ms, 0350ms total)
T1FD4 005:727 JLINK_ClrBPEx(BPHandle = 0x00000005)  returns 0x00 (0000ms, 0350ms total)
T1FD4 005:727 JLINK_ReadMemU32(0xE000ED30, 0x0001 Items, ...) -- CPU_ReadMem(4 bytes @ 0xE000ED30) - Data: 02 00 00 00  returns 0x01 (0000ms, 0350ms total)
T1FD4 005:727 JLINK_ReadMemU32(0xE0001028, 0x0001 Items, ...) -- CPU_ReadMem(4 bytes @ 0xE0001028) - Data: 00 00 00 00  returns 0x01 (0001ms, 0351ms total)
T1FD4 005:728 JLINK_ReadMemU32(0xE0001038, 0x0001 Items, ...) -- CPU_ReadMem(4 bytes @ 0xE0001038) - Data: 00 02 00 00  returns 0x01 (0000ms, 0351ms total)
T1FD4 005:728 JLINK_ReadMemU32(0xE0001048, 0x0001 Items, ...) -- CPU_ReadMem(4 bytes @ 0xE0001048) - Data: 00 00 00 00  returns 0x01 (0001ms, 0352ms total)
T1FD4 005:729 JLINK_ReadMemU32(0xE0001058, 0x0001 Items, ...) -- CPU_ReadMem(4 bytes @ 0xE0001058) - Data: 00 00 00 00  returns 0x01 (0000ms, 0352ms total)
T1FD4 005:729 JLINK_ReadReg(R0)  returns 0x00000000 (0000ms, 0352ms total)
T1FD4 005:729 JLINK_ReadReg(R1)  returns 0x00000002 (0001ms, 0353ms total)
T1FD4 005:730 JLINK_ReadReg(R2)  returns 0x08012FD9 (0000ms, 0353ms total)
T1FD4 005:730 JLINK_ReadReg(R3)  returns 0x00000000 (0000ms, 0353ms total)
T1FD4 005:730 JLINK_ReadReg(R4)  returns 0x00000000 (0000ms, 0353ms total)
T1FD4 005:730 JLINK_ReadReg(R5)  returns 0x20005664 (0000ms, 0353ms total)
T1FD4 005:730 JLINK_ReadReg(R6)  returns 0x00000000 (0000ms, 0353ms total)
T1FD4 005:730 JLINK_ReadReg(R7)  returns 0x00000000 (0000ms, 0353ms total)
T1FD4 005:730 JLINK_ReadReg(R8)  returns 0x00000000 (0000ms, 0353ms total)
T1FD4 005:730 JLINK_ReadReg(R9)  returns 0x00000000 (0000ms, 0353ms total)
T1FD4 005:730 JLINK_ReadReg(R10)  returns 0x0802E930 (0000ms, 0353ms total)
T1FD4 005:730 JLINK_ReadReg(R11)  returns 0x00000000 (0000ms, 0353ms total)
T1FD4 005:730 JLINK_ReadReg(R12)  returns 0x00000000 (0000ms, 0353ms total)
T1FD4 005:730 JLINK_ReadReg(R13 (SP))  returns 0x20005CC8 (0000ms, 0353ms total)
T1FD4 005:730 JLINK_ReadReg(R14)  returns 0x0800A17D (0000ms, 0353ms total)
T1FD4 005:730 JLINK_ReadReg(R15 (PC))  returns 0x0801308E (0000ms, 0353ms total)
T1FD4 005:730 JLINK_ReadReg(XPSR)  returns 0x01000000 (0000ms, 0353ms total)
T1FD4 005:730 JLINK_ReadReg(MSP)  returns 0x20005CC8 (0000ms, 0353ms total)
T1FD4 005:730 JLINK_ReadReg(PSP)  returns 0x00000000 (0000ms, 0353ms total)
T1FD4 005:730 JLINK_ReadReg(CFBP)  returns 0x04000000 (0000ms, 0353ms total)
T1FD4 005:730 JLINK_ReadReg(FPSCR)  returns 0x03000000 (0003ms, 0356ms total)
T1FD4 005:733 JLINK_ReadReg(FPS0)  returns 0x00000000 (0000ms, 0356ms total)
T1FD4 005:733 JLINK_ReadReg(FPS1)  returns 0x00000000 (0000ms, 0356ms total)
T1FD4 005:733 JLINK_ReadReg(FPS2)  returns 0x00000000 (0000ms, 0356ms total)
T1FD4 005:733 JLINK_ReadReg(FPS3)  returns 0x00000000 (0000ms, 0356ms total)
T1FD4 005:733 JLINK_ReadReg(FPS4)  returns 0x00000000 (0000ms, 0356ms total)
T1FD4 005:733 JLINK_ReadReg(FPS5)  returns 0x00000000 (0000ms, 0356ms total)
T1FD4 005:733 JLINK_ReadReg(FPS6)  returns 0x00000000 (0000ms, 0356ms total)
T1FD4 005:733 JLINK_ReadReg(FPS7)  returns 0x00000000 (0000ms, 0356ms total)
T1FD4 005:733 JLINK_ReadReg(FPS8)  returns 0x00000000 (0000ms, 0356ms total)
T1FD4 005:733 JLINK_ReadReg(FPS9)  returns 0x00000000 (0000ms, 0356ms total)
T1FD4 005:733 JLINK_ReadReg(FPS10)  returns 0x00000000 (0000ms, 0356ms total)
T1FD4 005:733 JLINK_ReadReg(FPS11)  returns 0x00000000 (0000ms, 0356ms total)
T1FD4 005:734 JLINK_ReadReg(FPS12)  returns 0x00000000 (0000ms, 0356ms total)
T1FD4 005:734 JLINK_ReadReg(FPS13)  returns 0x00000000 (0000ms, 0356ms total)
T1FD4 005:734 JLINK_ReadReg(FPS14)  returns 0x00000000 (0000ms, 0356ms total)
T1FD4 005:734 JLINK_ReadReg(FPS15)  returns 0x00000000 (0000ms, 0356ms total)
T1FD4 005:734 JLINK_ReadReg(FPS16)  returns 0x00000000 (0000ms, 0356ms total)
T1FD4 005:734 JLINK_ReadReg(FPS17)  returns 0x00000000 (0000ms, 0356ms total)
T1FD4 005:734 JLINK_ReadReg(FPS18)  returns 0x00000000 (0000ms, 0356ms total)
T1FD4 005:734 JLINK_ReadReg(FPS19)  returns 0x00000000 (0000ms, 0356ms total)
T1FD4 005:734 JLINK_ReadReg(FPS20)  returns 0x00000000 (0000ms, 0356ms total)
T1FD4 005:734 JLINK_ReadReg(FPS21)  returns 0x00000000 (0000ms, 0356ms total)
T1FD4 005:734 JLINK_ReadReg(FPS22)  returns 0x00000000 (0000ms, 0356ms total)
T1FD4 005:734 JLINK_ReadReg(FPS23)  returns 0x00000000 (0000ms, 0356ms total)
T1FD4 005:734 JLINK_ReadReg(FPS24)  returns 0x00000000 (0000ms, 0356ms total)
T1FD4 005:734 JLINK_ReadReg(FPS25)  returns 0x00000000 (0000ms, 0356ms total)
T1FD4 005:734 JLINK_ReadReg(FPS26)  returns 0x00000000 (0000ms, 0356ms total)
T1FD4 005:734 JLINK_ReadReg(FPS27)  returns 0x00000000 (0000ms, 0356ms total)
T1FD4 005:734 JLINK_ReadReg(FPS28)  returns 0x00000000 (0000ms, 0356ms total)
T1FD4 005:734 JLINK_ReadReg(FPS29)  returns 0x00000000 (0000ms, 0356ms total)
T1FD4 005:734 JLINK_ReadReg(FPS30)  returns 0x00000000 (0000ms, 0356ms total)
T1FD4 005:734 JLINK_ReadReg(FPS31)  returns 0x00000000 (0000ms, 0356ms total)
T2354 005:737 JLINK_ReadMem (0x00000000, 0x0002 Bytes, ...) -- CPU_ReadMem(4 bytes @ 0x00000004) -- CPU_ReadMem(64 bytes @ 0x08000000) -- Updating C cache (64 bytes @ 0x08000000) -- Read from C cache (2 bytes @ 0x08000000) - Data: C8 5C  returns 0x00 (0001ms, 0357ms total)
T2354 005:738 JLINK_ReadMemU32(0xE0001004, 0x0001 Items, ...) -- CPU_ReadMem(4 bytes @ 0xE0001004) - Data: C2 CF 9C 00  returns 0x01 (0001ms, 0358ms total)
T2354 005:746 JLINK_ReadMem (0x0801308A, 0x0002 Bytes, ...) -- CPU_ReadMem(64 bytes @ 0x08013080) -- Updating C cache (64 bytes @ 0x08013080) -- Read from C cache (2 bytes @ 0x0801308A) - Data: F2 F7  returns 0x00 (0001ms, 0359ms total)
T2354 005:747 JLINK_ReadMem (0x0801308C, 0x003C Bytes, ...) -- CPU_ReadMem(64 bytes @ 0x080130C0) -- Updating C cache (64 bytes @ 0x080130C0) -- Read from C cache (60 bytes @ 0x0801308C) - Data: E9 FB 01 20 ED F7 62 FF F5 F7 FE FF F6 F7 4E FE ...  returns 0x00 (0001ms, 0360ms total)
T1FD4 006:070 JLINK_Step() -- Read from C cache (2 bytes @ 0x0801308E) -- Simulated  returns 0x00 (0000ms, 0360ms total)
T1FD4 006:070 JLINK_ReadReg(R15 (PC))  returns 0x08013090 (0000ms, 0360ms total)
T1FD4 006:070 JLINK_ReadReg(XPSR)  returns 0x01000000 (0000ms, 0360ms total)
T1FD4 006:070 JLINK_SetBPEx(Addr = 0x08013094, Type = 0xFFFFFFF2)  returns 0x00000006 (0000ms, 0360ms total)
T1FD4 006:070 JLINK_Go() -- CPU_ReadMem(4 bytes @ 0xE0001000) -- CPU_WriteMem(4 bytes @ 0xE0002008) -- CPU_WriteMem(4 bytes @ 0xE0001004) (0004ms, 0364ms total)
T1FD4 006:175 JLINK_IsHalted()  returns TRUE (0002ms, 0366ms total)
T1FD4 006:177 JLINK_Halt()  returns 0x00 (0000ms, 0364ms total)
T1FD4 006:177 JLINK_IsHalted()  returns TRUE (0000ms, 0364ms total)
T1FD4 006:177 JLINK_IsHalted()  returns TRUE (0000ms, 0364ms total)
T1FD4 006:177 JLINK_IsHalted()  returns TRUE (0000ms, 0364ms total)
T1FD4 006:177 JLINK_ReadReg(R15 (PC))  returns 0x08013094 (0000ms, 0364ms total)
T1FD4 006:177 JLINK_ReadReg(XPSR)  returns 0x21000000 (0000ms, 0364ms total)
T1FD4 006:177 JLINK_ClrBPEx(BPHandle = 0x00000006)  returns 0x00 (0000ms, 0364ms total)
T1FD4 006:177 JLINK_ReadMemU32(0xE000ED30, 0x0001 Items, ...) -- CPU_ReadMem(4 bytes @ 0xE000ED30) - Data: 02 00 00 00  returns 0x01 (0001ms, 0365ms total)
T1FD4 006:178 JLINK_ReadMemU32(0xE0001028, 0x0001 Items, ...) -- CPU_ReadMem(4 bytes @ 0xE0001028) - Data: 00 00 00 00  returns 0x01 (0000ms, 0365ms total)
T1FD4 006:178 JLINK_ReadMemU32(0xE0001038, 0x0001 Items, ...) -- CPU_ReadMem(4 bytes @ 0xE0001038) - Data: 00 02 00 00  returns 0x01 (0001ms, 0366ms total)
T1FD4 006:179 JLINK_ReadMemU32(0xE0001048, 0x0001 Items, ...) -- CPU_ReadMem(4 bytes @ 0xE0001048) - Data: 00 00 00 00  returns 0x01 (0000ms, 0366ms total)
T1FD4 006:179 JLINK_ReadMemU32(0xE0001058, 0x0001 Items, ...) -- CPU_ReadMem(4 bytes @ 0xE0001058) - Data: 00 00 00 00  returns 0x01 (0001ms, 0367ms total)
T1FD4 006:180 JLINK_ReadReg(R0)  returns 0x40020400 (0000ms, 0367ms total)
T1FD4 006:180 JLINK_ReadReg(R1)  returns 0x00000001 (0000ms, 0367ms total)
T1FD4 006:180 JLINK_ReadReg(R2)  returns 0x00000001 (0000ms, 0367ms total)
T1FD4 006:180 JLINK_ReadReg(R3)  returns 0x01000301 (0000ms, 0367ms total)
T1FD4 006:180 JLINK_ReadReg(R4)  returns 0x00000000 (0000ms, 0367ms total)
T1FD4 006:180 JLINK_ReadReg(R5)  returns 0x20005664 (0000ms, 0367ms total)
T1FD4 006:180 JLINK_ReadReg(R6)  returns 0x00000000 (0000ms, 0367ms total)
T1FD4 006:180 JLINK_ReadReg(R7)  returns 0x00000000 (0000ms, 0367ms total)
T1FD4 006:180 JLINK_ReadReg(R8)  returns 0x00000000 (0000ms, 0367ms total)
T1FD4 006:180 JLINK_ReadReg(R9)  returns 0x00000000 (0000ms, 0367ms total)
T1FD4 006:181 JLINK_ReadReg(R10)  returns 0x0802E930 (0000ms, 0368ms total)
T1FD4 006:181 JLINK_ReadReg(R11)  returns 0x00000000 (0000ms, 0368ms total)
T1FD4 006:181 JLINK_ReadReg(R12)  returns 0x00000000 (0000ms, 0368ms total)
T1FD4 006:181 JLINK_ReadReg(R13 (SP))  returns 0x20005CC8 (0000ms, 0368ms total)
T1FD4 006:181 JLINK_ReadReg(R14)  returns 0x08000F97 (0000ms, 0368ms total)
T1FD4 006:181 JLINK_ReadReg(R15 (PC))  returns 0x08013094 (0000ms, 0368ms total)
